!Agilent Technologies,E5061B,MY49203226,A.02.09
!Date: Wed Oct 07 10:29:06 2015
!Data & Calibration Information:
!Freq	S11:RESPS(ON)	S21:RESPT(ON)	S12:NONE(--)	S22:NONE(--)
# Hz S dB R 50
10000.000	-3.096566e+001	1.785861e+002	-6.644250e+001	-7.527871e+001	-2.000000e+002	0.000000e+000	-2.000000e+002	0.000000e+000
10931.832	-3.097477e+001	1.784462e+002	-7.108534e+001	-3.244404e+001	-2.000000e+002	0.000000e+000	-2.000000e+002	0.000000e+000
11863.665	-3.098279e+001	1.782832e+002	-6.994373e+001	-2.797485e+001	-2.000000e+002	0.000000e+000	-2.000000e+002	0.000000e+000
12795.497	-3.099521e+001	1.781179e+002	-7.029174e+001	-1.314841e+001	-2.000000e+002	0.000000e+000	-2.000000e+002	0.000000e+000
13727.330	-3.100839e+001	1.779794e+002	-6.425618e+001	-5.247252e+001	-2.000000e+002	0.000000e+000	-2.000000e+002	0.000000e+000
14659.162	-3.102487e+001	1.778236e+002	-5.920459e+001	-5.045601e+001	-2.000000e+002	0.000000e+000	-2.000000e+002	0.000000e+000
15590.994	-3.104168e+001	1.776760e+002	-4.741331e+001	-1.664678e+002	-2.000000e+002	0.000000e+000	-2.000000e+002	0.000000e+000
16522.827	-3.105094e+001	1.775626e+002	-6.324395e+001	1.437149e+002	-2.000000e+002	0.000000e+000	-2.000000e+002	0.000000e+000
17454.659	-3.106990e+001	1.773772e+002	-6.764021e+001	1.429312e+002	-2.000000e+002	0.000000e+000	-2.000000e+002	0.000000e+000
18386.492	-3.108227e+001	1.772567e+002	-7.306511e+001	7.962737e+001	-2.000000e+002	0.000000e+000	-2.000000e+002	0.000000e+000
19318.324	-3.109818e+001	1.771089e+002	-5.951699e+001	5.073966e+001	-2.000000e+002	0.000000e+000	-2.000000e+002	0.000000e+000
20250.156	-3.111359e+001	1.770008e+002	-6.600540e+001	-1.576300e+002	-2.000000e+002	0.000000e+000	-2.000000e+002	0.000000e+000
21181.989	-3.113199e+001	1.768653e+002	-8.361909e+001	-1.171494e+002	-2.000000e+002	0.000000e+000	-2.000000e+002	0.000000e+000
22113.821	-3.114792e+001	1.767555e+002	-8.080156e+001	-1.352716e+002	-2.000000e+002	0.000000e+000	-2.000000e+002	0.000000e+000
23045.654	-3.116566e+001	1.766462e+002	-8.292371e+001	-1.269226e+000	-2.000000e+002	0.000000e+000	-2.000000e+002	0.000000e+000
23977.486	-3.118461e+001	1.765072e+002	-1.062191e+002	-1.166171e+002	-2.000000e+002	0.000000e+000	-2.000000e+002	0.000000e+000
24909.318	-3.120538e+001	1.764227e+002	-9.691079e+001	-6.588148e+001	-2.000000e+002	0.000000e+000	-2.000000e+002	0.000000e+000
25841.151	-3.122279e+001	1.762886e+002	-9.178340e+001	1.671793e+001	-2.000000e+002	0.000000e+000	-2.000000e+002	0.000000e+000
26772.983	-3.124298e+001	1.762122e+002	-8.753516e+001	4.177098e+001	-2.000000e+002	0.000000e+000	-2.000000e+002	0.000000e+000
27704.816	-3.126199e+001	1.761027e+002	-1.002470e+002	-5.060835e+000	-2.000000e+002	0.000000e+000	-2.000000e+002	0.000000e+000
28636.648	-3.127920e+001	1.760137e+002	-7.908001e+001	-2.419488e+001	-2.000000e+002	0.000000e+000	-2.000000e+002	0.000000e+000
29568.480	-3.129755e+001	1.759325e+002	-8.891844e+001	9.546327e+001	-2.000000e+002	0.000000e+000	-2.000000e+002	0.000000e+000
30500.313	-3.131721e+001	1.758293e+002	-7.571586e+001	-1.552290e+002	-2.000000e+002	0.000000e+000	-2.000000e+002	0.000000e+000
31432.145	-3.133352e+001	1.757724e+002	-6.828355e+001	-8.070907e+001	-2.000000e+002	0.000000e+000	-2.000000e+002	0.000000e+000
32363.977	-3.135341e+001	1.756901e+002	-6.349918e+001	-6.861902e+001	-2.000000e+002	0.000000e+000	-2.000000e+002	0.000000e+000
33295.810	-3.137218e+001	1.756348e+002	-6.777711e+001	-1.466808e+002	-2.000000e+002	0.000000e+000	-2.000000e+002	0.000000e+000
34227.642	-3.139311e+001	1.755805e+002	-5.808118e+001	-1.384244e+002	-2.000000e+002	0.000000e+000	-2.000000e+002	0.000000e+000
35159.475	-3.141153e+001	1.755486e+002	-4.287902e+001	-8.519600e+001	-2.000000e+002	0.000000e+000	-2.000000e+002	0.000000e+000
36091.307	-3.143025e+001	1.754778e+002	-4.654937e+001	1.054402e+002	-2.000000e+002	0.000000e+000	-2.000000e+002	0.000000e+000
37023.139	-3.145017e+001	1.754402e+002	-7.361303e+001	-3.400787e+001	-2.000000e+002	0.000000e+000	-2.000000e+002	0.000000e+000
37954.972	-3.146924e+001	1.753977e+002	-6.151895e+001	-2.522847e+001	-2.000000e+002	0.000000e+000	-2.000000e+002	0.000000e+000
38886.804	-3.148901e+001	1.753609e+002	-5.983275e+001	1.397592e+002	-2.000000e+002	0.000000e+000	-2.000000e+002	0.000000e+000
39818.637	-3.150423e+001	1.753202e+002	-5.584447e+001	1.015717e+002	-2.000000e+002	0.000000e+000	-2.000000e+002	0.000000e+000
40750.469	-3.152410e+001	1.753021e+002	-4.964940e+001	-1.042959e+002	-2.000000e+002	0.000000e+000	-2.000000e+002	0.000000e+000
41682.301	-3.154459e+001	1.752735e+002	-4.888863e+001	9.355975e+001	-2.000000e+002	0.000000e+000	-2.000000e+002	0.000000e+000
42614.134	-3.155830e+001	1.752349e+002	-5.986500e+001	-1.736610e+002	-2.000000e+002	0.000000e+000	-2.000000e+002	0.000000e+000
43545.966	-3.157835e+001	1.752369e+002	-5.989562e+001	7.490269e+001	-2.000000e+002	0.000000e+000	-2.000000e+002	0.000000e+000
44477.799	-3.159546e+001	1.752039e+002	-5.682764e+001	1.052020e+002	-2.000000e+002	0.000000e+000	-2.000000e+002	0.000000e+000
45409.631	-3.161236e+001	1.752238e+002	-5.685669e+001	9.828603e+001	-2.000000e+002	0.000000e+000	-2.000000e+002	0.000000e+000
46341.463	-3.162578e+001	1.751968e+002	-5.670343e+001	1.063930e+002	-2.000000e+002	0.000000e+000	-2.000000e+002	0.000000e+000
47273.296	-3.164065e+001	1.751835e+002	-5.535543e+001	1.063670e+002	-2.000000e+002	0.000000e+000	-2.000000e+002	0.000000e+000
48205.128	-3.165964e+001	1.751963e+002	-5.416824e+001	9.681915e+001	-2.000000e+002	0.000000e+000	-2.000000e+002	0.000000e+000
49136.961	-3.167152e+001	1.751974e+002	-5.326604e+001	9.994220e+001	-2.000000e+002	0.000000e+000	-2.000000e+002	0.000000e+000
50068.793	-3.168735e+001	1.751868e+002	-5.228605e+001	1.032666e+002	-2.000000e+002	0.000000e+000	-2.000000e+002	0.000000e+000
51000.625	-3.170291e+001	1.752173e+002	-5.146492e+001	9.831225e+001	-2.000000e+002	0.000000e+000	-2.000000e+002	0.000000e+000
51932.458	-3.171551e+001	1.752385e+002	-5.073050e+001	9.779569e+001	-2.000000e+002	0.000000e+000	-2.000000e+002	0.000000e+000
52864.290	-3.172831e+001	1.752506e+002	-4.922803e+001	9.994794e+001	-2.000000e+002	0.000000e+000	-2.000000e+002	0.000000e+000
53796.123	-3.174208e+001	1.752694e+002	-4.783312e+001	9.829126e+001	-2.000000e+002	0.000000e+000	-2.000000e+002	0.000000e+000
54727.955	-3.175502e+001	1.752883e+002	-4.666958e+001	9.822305e+001	-2.000000e+002	0.000000e+000	-2.000000e+002	0.000000e+000
55659.787	-3.176733e+001	1.753113e+002	-4.504927e+001	9.838177e+001	-2.000000e+002	0.000000e+000	-2.000000e+002	0.000000e+000
56591.620	-3.177628e+001	1.753244e+002	-4.330559e+001	9.778718e+001	-2.000000e+002	0.000000e+000	-2.000000e+002	0.000000e+000
57523.452	-3.178630e+001	1.753693e+002	-4.169032e+001	9.635400e+001	-2.000000e+002	0.000000e+000	-2.000000e+002	0.000000e+000
58455.285	-3.179890e+001	1.753649e+002	-3.940741e+001	9.646452e+001	-2.000000e+002	0.000000e+000	-2.000000e+002	0.000000e+000
59387.117	-3.181158e+001	1.754189e+002	-3.680850e+001	9.432107e+001	-2.000000e+002	0.000000e+000	-2.000000e+002	0.000000e+000
60318.949	-3.181991e+001	1.754445e+002	-3.346471e+001	9.374899e+001	-2.000000e+002	0.000000e+000	-2.000000e+002	0.000000e+000
61250.782	-3.182868e+001	1.754711e+002	-2.848789e+001	9.000955e+001	-2.000000e+002	0.000000e+000	-2.000000e+002	0.000000e+000
62182.614	-3.183639e+001	1.755156e+002	-1.850741e+001	7.392959e+001	-2.000000e+002	0.000000e+000	-2.000000e+002	0.000000e+000
63114.447	-3.184660e+001	1.755489e+002	-2.005765e+001	-6.460641e+001	-2.000000e+002	0.000000e+000	-2.000000e+002	0.000000e+000
64046.279	-3.185587e+001	1.755860e+002	-2.824657e+001	-7.664875e+001	-2.000000e+002	0.000000e+000	-2.000000e+002	0.000000e+000
64978.111	-3.186302e+001	1.756286e+002	-3.211401e+001	-7.938426e+001	-2.000000e+002	0.000000e+000	-2.000000e+002	0.000000e+000
65909.944	-3.186981e+001	1.756635e+002	-3.468713e+001	-8.099807e+001	-2.000000e+002	0.000000e+000	-2.000000e+002	0.000000e+000
66841.776	-3.187716e+001	1.757032e+002	-3.644819e+001	-8.172659e+001	-2.000000e+002	0.000000e+000	-2.000000e+002	0.000000e+000
67773.609	-3.188217e+001	1.757238e+002	-3.784750e+001	-8.230108e+001	-2.000000e+002	0.000000e+000	-2.000000e+002	0.000000e+000
68705.441	-3.188619e+001	1.757662e+002	-3.898218e+001	-8.309892e+001	-2.000000e+002	0.000000e+000	-2.000000e+002	0.000000e+000
69637.273	-3.189121e+001	1.758068e+002	-3.989773e+001	-8.334618e+001	-2.000000e+002	0.000000e+000	-2.000000e+002	0.000000e+000
70569.106	-3.189693e+001	1.758419e+002	-4.066080e+001	-8.385284e+001	-2.000000e+002	0.000000e+000	-2.000000e+002	0.000000e+000
71500.938	-3.190139e+001	1.758860e+002	-4.133854e+001	-8.415767e+001	-2.000000e+002	0.000000e+000	-2.000000e+002	0.000000e+000
72432.770	-3.190724e+001	1.759294e+002	-4.191135e+001	-8.454074e+001	-2.000000e+002	0.000000e+000	-2.000000e+002	0.000000e+000
73364.603	-3.191007e+001	1.759795e+002	-4.238409e+001	-8.494166e+001	-2.000000e+002	0.000000e+000	-2.000000e+002	0.000000e+000
74296.435	-3.191216e+001	1.760115e+002	-4.281051e+001	-8.526627e+001	-2.000000e+002	0.000000e+000	-2.000000e+002	0.000000e+000
75228.268	-3.191810e+001	1.760290e+002	-4.319677e+001	-8.553586e+001	-2.000000e+002	0.000000e+000	-2.000000e+002	0.000000e+000
76160.100	-3.191956e+001	1.760631e+002	-4.351681e+001	-8.559953e+001	-2.000000e+002	0.000000e+000	-2.000000e+002	0.000000e+000
77091.932	-3.192266e+001	1.761253e+002	-4.381778e+001	-8.580983e+001	-2.000000e+002	0.000000e+000	-2.000000e+002	0.000000e+000
78023.765	-3.192238e+001	1.761434e+002	-4.408508e+001	-8.623159e+001	-2.000000e+002	0.000000e+000	-2.000000e+002	0.000000e+000
78955.597	-3.192358e+001	1.761645e+002	-4.429633e+001	-8.658743e+001	-2.000000e+002	0.000000e+000	-2.000000e+002	0.000000e+000
79887.430	-3.192649e+001	1.762198e+002	-4.454258e+001	-8.681070e+001	-2.000000e+002	0.000000e+000	-2.000000e+002	0.000000e+000
80819.262	-3.192943e+001	1.762699e+002	-4.471046e+001	-8.677569e+001	-2.000000e+002	0.000000e+000	-2.000000e+002	0.000000e+000
81751.094	-3.193266e+001	1.762930e+002	-4.491140e+001	-8.704735e+001	-2.000000e+002	0.000000e+000	-2.000000e+002	0.000000e+000
82682.927	-3.192475e+001	1.763174e+002	-4.505611e+001	-8.737379e+001	-2.000000e+002	0.000000e+000	-2.000000e+002	0.000000e+000
83614.759	-3.192837e+001	1.763503e+002	-4.519773e+001	-8.764697e+001	-2.000000e+002	0.000000e+000	-2.000000e+002	0.000000e+000
84546.592	-3.193022e+001	1.763986e+002	-4.531590e+001	-8.770496e+001	-2.000000e+002	0.000000e+000	-2.000000e+002	0.000000e+000
85478.424	-3.192817e+001	1.764320e+002	-4.541299e+001	-8.811785e+001	-2.000000e+002	0.000000e+000	-2.000000e+002	0.000000e+000
86410.256	-3.192839e+001	1.764438e+002	-4.554982e+001	-8.818832e+001	-2.000000e+002	0.000000e+000	-2.000000e+002	0.000000e+000
87342.089	-3.192895e+001	1.765046e+002	-4.560278e+001	-8.853302e+001	-2.000000e+002	0.000000e+000	-2.000000e+002	0.000000e+000
88273.921	-3.192850e+001	1.765182e+002	-4.572829e+001	-8.864089e+001	-2.000000e+002	0.000000e+000	-2.000000e+002	0.000000e+000
89205.754	-3.192432e+001	1.765610e+002	-4.575873e+001	-8.876809e+001	-2.000000e+002	0.000000e+000	-2.000000e+002	0.000000e+000
90137.586	-3.192500e+001	1.765827e+002	-4.584287e+001	-8.879314e+001	-2.000000e+002	0.000000e+000	-2.000000e+002	0.000000e+000
91069.418	-3.192167e+001	1.766172e+002	-4.592592e+001	-8.907058e+001	-2.000000e+002	0.000000e+000	-2.000000e+002	0.000000e+000
92001.251	-3.192173e+001	1.768395e+002	-4.596766e+001	-8.922322e+001	-2.000000e+002	0.000000e+000	-2.000000e+002	0.000000e+000
92933.083	-3.191802e+001	1.768849e+002	-4.599606e+001	-8.943077e+001	-2.000000e+002	0.000000e+000	-2.000000e+002	0.000000e+000
93864.916	-3.191602e+001	1.769157e+002	-4.605620e+001	-8.964210e+001	-2.000000e+002	0.000000e+000	-2.000000e+002	0.000000e+000
94796.748	-3.191387e+001	1.769405e+002	-4.607391e+001	-8.979730e+001	-2.000000e+002	0.000000e+000	-2.000000e+002	0.000000e+000
95728.580	-3.190703e+001	1.769571e+002	-4.612498e+001	-9.002813e+001	-2.000000e+002	0.000000e+000	-2.000000e+002	0.000000e+000
96660.413	-3.190950e+001	1.769964e+002	-4.615504e+001	-9.008042e+001	-2.000000e+002	0.000000e+000	-2.000000e+002	0.000000e+000
97592.245	-3.190483e+001	1.770098e+002	-4.618553e+001	-9.030360e+001	-2.000000e+002	0.000000e+000	-2.000000e+002	0.000000e+000
98524.078	-3.189676e+001	1.770471e+002	-4.621607e+001	-9.049874e+001	-2.000000e+002	0.000000e+000	-2.000000e+002	0.000000e+000
99455.910	-3.189145e+001	1.770484e+002	-4.620606e+001	-9.063608e+001	-2.000000e+002	0.000000e+000	-2.000000e+002	0.000000e+000
100387.742	-3.189001e+001	1.770760e+002	-4.622712e+001	-9.076294e+001	-2.000000e+002	0.000000e+000	-2.000000e+002	0.000000e+000
101319.575	-3.188513e+001	1.770969e+002	-4.621468e+001	-9.094331e+001	-2.000000e+002	0.000000e+000	-2.000000e+002	0.000000e+000
102251.407	-3.188178e+001	1.771123e+002	-4.623476e+001	-9.122754e+001	-2.000000e+002	0.000000e+000	-2.000000e+002	0.000000e+000
103183.240	-3.187581e+001	1.771495e+002	-4.622500e+001	-9.140174e+001	-2.000000e+002	0.000000e+000	-2.000000e+002	0.000000e+000
104115.072	-3.187345e+001	1.771632e+002	-4.624855e+001	-9.147586e+001	-2.000000e+002	0.000000e+000	-2.000000e+002	0.000000e+000
105046.904	-3.186925e+001	1.771706e+002	-4.624843e+001	-9.171593e+001	-2.000000e+002	0.000000e+000	-2.000000e+002	0.000000e+000
105978.737	-3.186233e+001	1.771891e+002	-4.623748e+001	-9.178812e+001	-2.000000e+002	0.000000e+000	-2.000000e+002	0.000000e+000
106910.569	-3.185673e+001	1.772079e+002	-4.620536e+001	-9.180200e+001	-2.000000e+002	0.000000e+000	-2.000000e+002	0.000000e+000
107842.402	-3.185128e+001	1.772176e+002	-4.621618e+001	-9.195820e+001	-2.000000e+002	0.000000e+000	-2.000000e+002	0.000000e+000
108774.234	-3.184347e+001	1.772320e+002	-4.620631e+001	-9.235576e+001	-2.000000e+002	0.000000e+000	-2.000000e+002	0.000000e+000
109706.066	-3.183829e+001	1.772272e+002	-4.619919e+001	-9.223115e+001	-2.000000e+002	0.000000e+000	-2.000000e+002	0.000000e+000
110637.899	-3.183729e+001	1.772395e+002	-4.620012e+001	-9.243745e+001	-2.000000e+002	0.000000e+000	-2.000000e+002	0.000000e+000
111569.731	-3.183189e+001	1.772561e+002	-4.619448e+001	-9.258329e+001	-2.000000e+002	0.000000e+000	-2.000000e+002	0.000000e+000
112501.563	-3.182541e+001	1.772575e+002	-4.616310e+001	-9.260046e+001	-2.000000e+002	0.000000e+000	-2.000000e+002	0.000000e+000
113433.396	-3.181774e+001	1.772839e+002	-4.612484e+001	-9.304620e+001	-2.000000e+002	0.000000e+000	-2.000000e+002	0.000000e+000
114365.228	-3.181351e+001	1.772640e+002	-4.613549e+001	-9.300820e+001	-2.000000e+002	0.000000e+000	-2.000000e+002	0.000000e+000
115297.061	-3.180993e+001	1.772675e+002	-4.611858e+001	-9.317124e+001	-2.000000e+002	0.000000e+000	-2.000000e+002	0.000000e+000
116228.893	-3.180244e+001	1.772801e+002	-4.607813e+001	-9.324616e+001	-2.000000e+002	0.000000e+000	-2.000000e+002	0.000000e+000
117160.725	-3.179551e+001	1.772875e+002	-4.606886e+001	-9.344442e+001	-2.000000e+002	0.000000e+000	-2.000000e+002	0.000000e+000
118092.558	-3.178936e+001	1.772777e+002	-4.603402e+001	-9.373803e+001	-2.000000e+002	0.000000e+000	-2.000000e+002	0.000000e+000
119024.390	-3.178039e+001	1.772696e+002	-4.601726e+001	-9.366425e+001	-2.000000e+002	0.000000e+000	-2.000000e+002	0.000000e+000
119956.223	-3.177533e+001	1.772779e+002	-4.598112e+001	-9.374291e+001	-2.000000e+002	0.000000e+000	-2.000000e+002	0.000000e+000
120888.055	-3.176991e+001	1.772743e+002	-4.597559e+001	-9.405784e+001	-2.000000e+002	0.000000e+000	-2.000000e+002	0.000000e+000
121819.887	-3.176266e+001	1.772548e+002	-4.590682e+001	-9.419035e+001	-2.000000e+002	0.000000e+000	-2.000000e+002	0.000000e+000
122751.720	-3.175611e+001	1.772882e+002	-4.590373e+001	-9.439896e+001	-2.000000e+002	0.000000e+000	-2.000000e+002	0.000000e+000
123683.552	-3.174976e+001	1.772800e+002	-4.584473e+001	-9.436709e+001	-2.000000e+002	0.000000e+000	-2.000000e+002	0.000000e+000
124615.385	-3.174685e+001	1.772534e+002	-4.585756e+001	-9.455091e+001	-2.000000e+002	0.000000e+000	-2.000000e+002	0.000000e+000
125547.217	-3.173631e+001	1.772747e+002	-4.580580e+001	-9.470959e+001	-2.000000e+002	0.000000e+000	-2.000000e+002	0.000000e+000
126479.049	-3.172887e+001	1.772682e+002	-4.576844e+001	-9.465539e+001	-2.000000e+002	0.000000e+000	-2.000000e+002	0.000000e+000
127410.882	-3.172717e+001	1.772376e+002	-4.574770e+001	-9.489226e+001	-2.000000e+002	0.000000e+000	-2.000000e+002	0.000000e+000
128342.714	-3.171809e+001	1.772393e+002	-4.573757e+001	-9.497107e+001	-2.000000e+002	0.000000e+000	-2.000000e+002	0.000000e+000
129274.547	-3.171036e+001	1.772165e+002	-4.572256e+001	-9.511383e+001	-2.000000e+002	0.000000e+000	-2.000000e+002	0.000000e+000
130206.379	-3.170439e+001	1.772260e+002	-4.566401e+001	-9.520815e+001	-2.000000e+002	0.000000e+000	-2.000000e+002	0.000000e+000
131138.211	-3.169510e+001	1.772162e+002	-4.564181e+001	-9.531519e+001	-2.000000e+002	0.000000e+000	-2.000000e+002	0.000000e+000
132070.044	-3.168678e+001	1.771878e+002	-4.558425e+001	-9.540645e+001	-2.000000e+002	0.000000e+000	-2.000000e+002	0.000000e+000
133001.876	-3.168196e+001	1.771797e+002	-4.553673e+001	-9.569566e+001	-2.000000e+002	0.000000e+000	-2.000000e+002	0.000000e+000
133933.709	-3.167747e+001	1.771659e+002	-4.552669e+001	-9.580506e+001	-2.000000e+002	0.000000e+000	-2.000000e+002	0.000000e+000
134865.541	-3.166657e+001	1.771616e+002	-4.549316e+001	-9.567560e+001	-2.000000e+002	0.000000e+000	-2.000000e+002	0.000000e+000
135797.373	-3.166583e+001	1.771533e+002	-4.546737e+001	-9.583544e+001	-2.000000e+002	0.000000e+000	-2.000000e+002	0.000000e+000
136729.206	-3.165467e+001	1.771295e+002	-4.542821e+001	-9.608535e+001	-2.000000e+002	0.000000e+000	-2.000000e+002	0.000000e+000
137661.038	-3.164816e+001	1.771006e+002	-4.538289e+001	-9.625518e+001	-2.000000e+002	0.000000e+000	-2.000000e+002	0.000000e+000
138592.871	-3.164266e+001	1.770973e+002	-4.536853e+001	-9.634049e+001	-2.000000e+002	0.000000e+000	-2.000000e+002	0.000000e+000
139524.703	-3.163112e+001	1.770777e+002	-4.531854e+001	-9.649424e+001	-2.000000e+002	0.000000e+000	-2.000000e+002	0.000000e+000
140456.535	-3.162689e+001	1.770502e+002	-4.528202e+001	-9.659764e+001	-2.000000e+002	0.000000e+000	-2.000000e+002	0.000000e+000
141388.368	-3.162193e+001	1.770604e+002	-4.523092e+001	-9.660253e+001	-2.000000e+002	0.000000e+000	-2.000000e+002	0.000000e+000
142320.200	-3.161122e+001	1.770229e+002	-4.520636e+001	-9.691769e+001	-2.000000e+002	0.000000e+000	-2.000000e+002	0.000000e+000
143252.033	-3.160522e+001	1.769904e+002	-4.517605e+001	-9.683039e+001	-2.000000e+002	0.000000e+000	-2.000000e+002	0.000000e+000
144183.865	-3.159799e+001	1.769847e+002	-4.512558e+001	-9.705571e+001	-2.000000e+002	0.000000e+000	-2.000000e+002	0.000000e+000
145115.697	-3.158943e+001	1.769350e+002	-4.510269e+001	-9.706224e+001	-2.000000e+002	0.000000e+000	-2.000000e+002	0.000000e+000
146047.530	-3.158171e+001	1.769302e+002	-4.507036e+001	-9.715643e+001	-2.000000e+002	0.000000e+000	-2.000000e+002	0.000000e+000
146979.362	-3.157659e+001	1.769119e+002	-4.504622e+001	-9.735055e+001	-2.000000e+002	0.000000e+000	-2.000000e+002	0.000000e+000
147911.194	-3.156689e+001	1.768499e+002	-4.499070e+001	-9.759738e+001	-2.000000e+002	0.000000e+000	-2.000000e+002	0.000000e+000
148843.027	-3.155934e+001	1.768594e+002	-4.495853e+001	-9.769010e+001	-2.000000e+002	0.000000e+000	-2.000000e+002	0.000000e+000
149774.859	-3.155550e+001	1.768102e+002	-4.489575e+001	-9.761736e+001	-2.000000e+002	0.000000e+000	-2.000000e+002	0.000000e+000
150706.692	-3.155031e+001	1.767941e+002	-4.485159e+001	-9.779176e+001	-2.000000e+002	0.000000e+000	-2.000000e+002	0.000000e+000
151638.524	-3.153952e+001	1.767754e+002	-4.482180e+001	-9.804454e+001	-2.000000e+002	0.000000e+000	-2.000000e+002	0.000000e+000
152570.356	-3.153559e+001	1.767506e+002	-4.476339e+001	-9.805733e+001	-2.000000e+002	0.000000e+000	-2.000000e+002	0.000000e+000
