!Agilent Technologies,E5061B,MY49203226,A.02.09
!Date: Wed Oct 07 10:27:53 2015
!Data & Calibration Information:
!Freq	S11:RESPS(ON)	S21:RESPT(ON)	S12:NONE(--)	S22:NONE(--)
# Hz S dB R 50
10000.000	-3.062202e+001	1.786574e+002	-6.720556e+001	-3.938011e+001	-2.000000e+002	0.000000e+000	-2.000000e+002	0.000000e+000
10931.832	-3.062936e+001	1.785116e+002	-7.669599e+001	1.217765e+000	-2.000000e+002	0.000000e+000	-2.000000e+002	0.000000e+000
11863.665	-3.063915e+001	1.783527e+002	-7.322509e+001	-4.278965e+001	-2.000000e+002	0.000000e+000	-2.000000e+002	0.000000e+000
12795.497	-3.065233e+001	1.782116e+002	-6.908598e+001	-3.511586e+001	-2.000000e+002	0.000000e+000	-2.000000e+002	0.000000e+000
13727.330	-3.066606e+001	1.780816e+002	-6.593592e+001	-4.056421e+001	-2.000000e+002	0.000000e+000	-2.000000e+002	0.000000e+000
14659.162	-3.067841e+001	1.779371e+002	-5.940996e+001	-3.929198e+001	-2.000000e+002	0.000000e+000	-2.000000e+002	0.000000e+000
15590.994	-3.069202e+001	1.777763e+002	-3.736672e+001	-1.209312e+002	-2.000000e+002	0.000000e+000	-2.000000e+002	0.000000e+000
16522.827	-3.070728e+001	1.776444e+002	-6.201616e+001	1.288837e+002	-2.000000e+002	0.000000e+000	-2.000000e+002	0.000000e+000
17454.659	-3.071943e+001	1.774996e+002	-6.792737e+001	1.679706e+002	-2.000000e+002	0.000000e+000	-2.000000e+002	0.000000e+000
18386.492	-3.073308e+001	1.773726e+002	-7.064156e+001	1.108069e+002	-2.000000e+002	0.000000e+000	-2.000000e+002	0.000000e+000
19318.324	-3.074854e+001	1.772477e+002	-5.712773e+001	1.133195e+002	-2.000000e+002	0.000000e+000	-2.000000e+002	0.000000e+000
20250.156	-3.076671e+001	1.771142e+002	-7.660974e+001	-7.800193e+001	-2.000000e+002	0.000000e+000	-2.000000e+002	0.000000e+000
21181.989	-3.077900e+001	1.769920e+002	-1.138561e+002	1.029347e+002	-2.000000e+002	0.000000e+000	-2.000000e+002	0.000000e+000
22113.821	-3.079644e+001	1.768862e+002	-8.941069e+001	-5.774095e+001	-2.000000e+002	0.000000e+000	-2.000000e+002	0.000000e+000
23045.654	-3.081462e+001	1.767679e+002	-8.570296e+001	6.824497e+001	-2.000000e+002	0.000000e+000	-2.000000e+002	0.000000e+000
23977.486	-3.083192e+001	1.766698e+002	-9.327417e+001	-5.084847e+001	-2.000000e+002	0.000000e+000	-2.000000e+002	0.000000e+000
24909.318	-3.084923e+001	1.765490e+002	-9.665924e+001	3.421740e+001	-2.000000e+002	0.000000e+000	-2.000000e+002	0.000000e+000
25841.151	-3.087197e+001	1.764517e+002	-1.020031e+002	3.731996e+001	-2.000000e+002	0.000000e+000	-2.000000e+002	0.000000e+000
26772.983	-3.088501e+001	1.763661e+002	-9.916240e+001	-2.546785e+001	-2.000000e+002	0.000000e+000	-2.000000e+002	0.000000e+000
27704.816	-3.090576e+001	1.762436e+002	-7.846823e+001	5.455880e+001	-2.000000e+002	0.000000e+000	-2.000000e+002	0.000000e+000
28636.648	-3.092117e+001	1.761914e+002	-7.356288e+001	-8.786171e+001	-2.000000e+002	0.000000e+000	-2.000000e+002	0.000000e+000
29568.480	-3.094169e+001	1.761039e+002	-7.927336e+001	-3.323792e+001	-2.000000e+002	0.000000e+000	-2.000000e+002	0.000000e+000
30500.313	-3.095906e+001	1.760159e+002	-7.634096e+001	-1.546524e+002	-2.000000e+002	0.000000e+000	-2.000000e+002	0.000000e+000
31432.145	-3.097825e+001	1.759573e+002	-7.370051e+001	-2.976817e+001	-2.000000e+002	0.000000e+000	-2.000000e+002	0.000000e+000
32363.977	-3.099771e+001	1.758906e+002	-6.424900e+001	-3.569764e+001	-2.000000e+002	0.000000e+000	-2.000000e+002	0.000000e+000
33295.810	-3.101294e+001	1.758372e+002	-5.874471e+001	1.129031e+002	-2.000000e+002	0.000000e+000	-2.000000e+002	0.000000e+000
34227.642	-3.103304e+001	1.757788e+002	-5.822287e+001	-1.209127e+001	-2.000000e+002	0.000000e+000	-2.000000e+002	0.000000e+000
35159.475	-3.105099e+001	1.757266e+002	-5.859643e+001	-9.119064e+001	-2.000000e+002	0.000000e+000	-2.000000e+002	0.000000e+000
36091.307	-3.107040e+001	1.756679e+002	-3.774313e+001	-1.314535e+002	-2.000000e+002	0.000000e+000	-2.000000e+002	0.000000e+000
37023.139	-3.108682e+001	1.756390e+002	-4.970740e+001	5.786054e+001	-2.000000e+002	0.000000e+000	-2.000000e+002	0.000000e+000
37954.972	-3.110679e+001	1.755827e+002	-5.374916e+001	1.187865e+002	-2.000000e+002	0.000000e+000	-2.000000e+002	0.000000e+000
38886.804	-3.112476e+001	1.755488e+002	-5.575088e+001	5.533969e+001	-2.000000e+002	0.000000e+000	-2.000000e+002	0.000000e+000
39818.637	-3.114084e+001	1.755311e+002	-5.549436e+001	6.797343e+001	-2.000000e+002	0.000000e+000	-2.000000e+002	0.000000e+000
40750.469	-3.115890e+001	1.754905e+002	-5.926348e+001	-2.713084e+001	-2.000000e+002	0.000000e+000	-2.000000e+002	0.000000e+000
41682.301	-3.117628e+001	1.754714e+002	-5.521368e+001	1.170155e+002	-2.000000e+002	0.000000e+000	-2.000000e+002	0.000000e+000
42614.134	-3.119253e+001	1.754595e+002	-5.238046e+001	8.102070e+001	-2.000000e+002	0.000000e+000	-2.000000e+002	0.000000e+000
43545.966	-3.121019e+001	1.754236e+002	-5.893726e+001	9.568045e+001	-2.000000e+002	0.000000e+000	-2.000000e+002	0.000000e+000
44477.799	-3.122502e+001	1.754238e+002	-5.940273e+001	1.109328e+002	-2.000000e+002	0.000000e+000	-2.000000e+002	0.000000e+000
45409.631	-3.124213e+001	1.754311e+002	-5.581855e+001	9.837480e+001	-2.000000e+002	0.000000e+000	-2.000000e+002	0.000000e+000
46341.463	-3.125664e+001	1.754114e+002	-5.642108e+001	1.037546e+002	-2.000000e+002	0.000000e+000	-2.000000e+002	0.000000e+000
47273.296	-3.127332e+001	1.753969e+002	-5.555072e+001	1.004066e+002	-2.000000e+002	0.000000e+000	-2.000000e+002	0.000000e+000
48205.128	-3.128908e+001	1.754031e+002	-5.402046e+001	1.071398e+002	-2.000000e+002	0.000000e+000	-2.000000e+002	0.000000e+000
49136.961	-3.130450e+001	1.754097e+002	-5.405106e+001	1.010210e+002	-2.000000e+002	0.000000e+000	-2.000000e+002	0.000000e+000
50068.793	-3.131773e+001	1.754347e+002	-5.251501e+001	1.012857e+002	-2.000000e+002	0.000000e+000	-2.000000e+002	0.000000e+000
51000.625	-3.133262e+001	1.754215e+002	-5.160721e+001	9.738832e+001	-2.000000e+002	0.000000e+000	-2.000000e+002	0.000000e+000
51932.458	-3.134208e+001	1.754278e+002	-5.043333e+001	9.975021e+001	-2.000000e+002	0.000000e+000	-2.000000e+002	0.000000e+000
52864.290	-3.135514e+001	1.754593e+002	-4.953732e+001	9.732070e+001	-2.000000e+002	0.000000e+000	-2.000000e+002	0.000000e+000
53796.123	-3.136777e+001	1.754811e+002	-4.811506e+001	9.800580e+001	-2.000000e+002	0.000000e+000	-2.000000e+002	0.000000e+000
54727.955	-3.138133e+001	1.755098e+002	-4.720925e+001	9.837475e+001	-2.000000e+002	0.000000e+000	-2.000000e+002	0.000000e+000
55659.787	-3.139113e+001	1.755215e+002	-4.596966e+001	9.803697e+001	-2.000000e+002	0.000000e+000	-2.000000e+002	0.000000e+000
56591.620	-3.140156e+001	1.755391e+002	-4.468570e+001	9.662273e+001	-2.000000e+002	0.000000e+000	-2.000000e+002	0.000000e+000
57523.452	-3.141234e+001	1.755684e+002	-4.311568e+001	9.765398e+001	-2.000000e+002	0.000000e+000	-2.000000e+002	0.000000e+000
58455.285	-3.142202e+001	1.756010e+002	-4.159214e+001	9.641545e+001	-2.000000e+002	0.000000e+000	-2.000000e+002	0.000000e+000
59387.117	-3.143361e+001	1.756230e+002	-3.974497e+001	9.601597e+001	-2.000000e+002	0.000000e+000	-2.000000e+002	0.000000e+000
60318.949	-3.144228e+001	1.756613e+002	-3.775087e+001	9.525446e+001	-2.000000e+002	0.000000e+000	-2.000000e+002	0.000000e+000
61250.782	-3.145092e+001	1.756859e+002	-3.533207e+001	9.427171e+001	-2.000000e+002	0.000000e+000	-2.000000e+002	0.000000e+000
62182.614	-3.145971e+001	1.757120e+002	-3.221311e+001	9.288534e+001	-2.000000e+002	0.000000e+000	-2.000000e+002	0.000000e+000
63114.447	-3.146949e+001	1.757726e+002	-2.788049e+001	9.030112e+001	-2.000000e+002	0.000000e+000	-2.000000e+002	0.000000e+000
64046.279	-3.147665e+001	1.758027e+002	-2.021863e+001	8.096871e+001	-2.000000e+002	0.000000e+000	-2.000000e+002	0.000000e+000
64978.111	-3.148585e+001	1.758263e+002	-1.325244e+001	-4.807846e+001	-2.000000e+002	0.000000e+000	-2.000000e+002	0.000000e+000
65909.944	-3.148706e+001	1.758641e+002	-2.444785e+001	-7.523701e+001	-2.000000e+002	0.000000e+000	-2.000000e+002	0.000000e+000
66841.776	-3.149466e+001	1.758857e+002	-2.900238e+001	-7.902837e+001	-2.000000e+002	0.000000e+000	-2.000000e+002	0.000000e+000
67773.609	-3.149994e+001	1.759215e+002	-3.183766e+001	-8.089313e+001	-2.000000e+002	0.000000e+000	-2.000000e+002	0.000000e+000
68705.441	-3.150596e+001	1.759598e+002	-3.382059e+001	-8.195566e+001	-2.000000e+002	0.000000e+000	-2.000000e+002	0.000000e+000
69637.273	-3.151340e+001	1.759894e+002	-3.529832e+001	-8.268435e+001	-2.000000e+002	0.000000e+000	-2.000000e+002	0.000000e+000
70569.106	-3.151877e+001	1.760247e+002	-3.649831e+001	-8.327925e+001	-2.000000e+002	0.000000e+000	-2.000000e+002	0.000000e+000
71500.938	-3.152285e+001	1.760757e+002	-3.746595e+001	-8.376791e+001	-2.000000e+002	0.000000e+000	-2.000000e+002	0.000000e+000
72432.770	-3.152704e+001	1.761033e+002	-3.827594e+001	-8.424570e+001	-2.000000e+002	0.000000e+000	-2.000000e+002	0.000000e+000
73364.603	-3.152712e+001	1.761361e+002	-3.896570e+001	-8.454185e+001	-2.000000e+002	0.000000e+000	-2.000000e+002	0.000000e+000
74296.435	-3.153262e+001	1.761770e+002	-3.956234e+001	-8.488848e+001	-2.000000e+002	0.000000e+000	-2.000000e+002	0.000000e+000
75228.268	-3.153458e+001	1.762387e+002	-4.008266e+001	-8.526562e+001	-2.000000e+002	0.000000e+000	-2.000000e+002	0.000000e+000
76160.100	-3.153645e+001	1.762751e+002	-4.052876e+001	-8.542251e+001	-2.000000e+002	0.000000e+000	-2.000000e+002	0.000000e+000
77091.932	-3.153875e+001	1.762893e+002	-4.092794e+001	-8.576282e+001	-2.000000e+002	0.000000e+000	-2.000000e+002	0.000000e+000
78023.765	-3.154370e+001	1.763264e+002	-4.127259e+001	-8.613398e+001	-2.000000e+002	0.000000e+000	-2.000000e+002	0.000000e+000
78955.597	-3.154284e+001	1.763645e+002	-4.159035e+001	-8.620874e+001	-2.000000e+002	0.000000e+000	-2.000000e+002	0.000000e+000
79887.430	-3.154351e+001	1.764016e+002	-4.188500e+001	-8.663646e+001	-2.000000e+002	0.000000e+000	-2.000000e+002	0.000000e+000
80819.262	-3.154693e+001	1.764523e+002	-4.212540e+001	-8.682095e+001	-2.000000e+002	0.000000e+000	-2.000000e+002	0.000000e+000
81751.094	-3.155105e+001	1.764623e+002	-4.235620e+001	-8.695660e+001	-2.000000e+002	0.000000e+000	-2.000000e+002	0.000000e+000
82682.927	-3.154552e+001	1.764959e+002	-4.255938e+001	-8.711187e+001	-2.000000e+002	0.000000e+000	-2.000000e+002	0.000000e+000
83614.759	-3.154621e+001	1.765228e+002	-4.272229e+001	-8.748633e+001	-2.000000e+002	0.000000e+000	-2.000000e+002	0.000000e+000
84546.592	-3.154676e+001	1.765894e+002	-4.290048e+001	-8.758648e+001	-2.000000e+002	0.000000e+000	-2.000000e+002	0.000000e+000
85478.424	-3.154710e+001	1.766276e+002	-4.305333e+001	-8.784729e+001	-2.000000e+002	0.000000e+000	-2.000000e+002	0.000000e+000
86410.256	-3.154513e+001	1.766509e+002	-4.318377e+001	-8.801930e+001	-2.000000e+002	0.000000e+000	-2.000000e+002	0.000000e+000
87342.089	-3.154611e+001	1.766617e+002	-4.331805e+001	-8.816842e+001	-2.000000e+002	0.000000e+000	-2.000000e+002	0.000000e+000
88273.921	-3.154583e+001	1.767159e+002	-4.342772e+001	-8.840316e+001	-2.000000e+002	0.000000e+000	-2.000000e+002	0.000000e+000
89205.754	-3.154527e+001	1.767538e+002	-4.352750e+001	-8.859264e+001	-2.000000e+002	0.000000e+000	-2.000000e+002	0.000000e+000
90137.586	-3.153825e+001	1.767666e+002	-4.360156e+001	-8.887821e+001	-2.000000e+002	0.000000e+000	-2.000000e+002	0.000000e+000
91069.418	-3.154474e+001	1.768060e+002	-4.369449e+001	-8.891019e+001	-2.000000e+002	0.000000e+000	-2.000000e+002	0.000000e+000
92001.251	-3.153975e+001	1.770204e+002	-4.378051e+001	-8.916795e+001	-2.000000e+002	0.000000e+000	-2.000000e+002	0.000000e+000
92933.083	-3.153580e+001	1.770406e+002	-4.383793e+001	-8.933994e+001	-2.000000e+002	0.000000e+000	-2.000000e+002	0.000000e+000
93864.916	-3.153514e+001	1.770908e+002	-4.391588e+001	-8.949980e+001	-2.000000e+002	0.000000e+000	-2.000000e+002	0.000000e+000
94796.748	-3.153217e+001	1.770889e+002	-4.396508e+001	-8.969170e+001	-2.000000e+002	0.000000e+000	-2.000000e+002	0.000000e+000
95728.580	-3.152695e+001	1.771377e+002	-4.399340e+001	-8.993664e+001	-2.000000e+002	0.000000e+000	-2.000000e+002	0.000000e+000
96660.413	-3.152392e+001	1.771546e+002	-4.404444e+001	-9.008567e+001	-2.000000e+002	0.000000e+000	-2.000000e+002	0.000000e+000
97592.245	-3.152359e+001	1.771746e+002	-4.407818e+001	-9.024441e+001	-2.000000e+002	0.000000e+000	-2.000000e+002	0.000000e+000
98524.078	-3.151625e+001	1.772096e+002	-4.412283e+001	-9.039604e+001	-2.000000e+002	0.000000e+000	-2.000000e+002	0.000000e+000
99455.910	-3.151488e+001	1.772171e+002	-4.414212e+001	-9.050326e+001	-2.000000e+002	0.000000e+000	-2.000000e+002	0.000000e+000
100387.742	-3.151154e+001	1.772267e+002	-4.416988e+001	-9.063511e+001	-2.000000e+002	0.000000e+000	-2.000000e+002	0.000000e+000
101319.575	-3.150565e+001	1.772856e+002	-4.419294e+001	-9.090286e+001	-2.000000e+002	0.000000e+000	-2.000000e+002	0.000000e+000
102251.407	-3.150176e+001	1.772828e+002	-4.419645e+001	-9.104093e+001	-2.000000e+002	0.000000e+000	-2.000000e+002	0.000000e+000
103183.240	-3.149616e+001	1.773179e+002	-4.420630e+001	-9.113906e+001	-2.000000e+002	0.000000e+000	-2.000000e+002	0.000000e+000
104115.072	-3.149273e+001	1.773085e+002	-4.421636e+001	-9.141972e+001	-2.000000e+002	0.000000e+000	-2.000000e+002	0.000000e+000
105046.904	-3.148769e+001	1.773442e+002	-4.423539e+001	-9.149601e+001	-2.000000e+002	0.000000e+000	-2.000000e+002	0.000000e+000
105978.737	-3.148628e+001	1.773475e+002	-4.424724e+001	-9.167467e+001	-2.000000e+002	0.000000e+000	-2.000000e+002	0.000000e+000
106910.569	-3.147871e+001	1.773677e+002	-4.423376e+001	-9.174787e+001	-2.000000e+002	0.000000e+000	-2.000000e+002	0.000000e+000
107842.402	-3.147484e+001	1.773621e+002	-4.423097e+001	-9.194285e+001	-2.000000e+002	0.000000e+000	-2.000000e+002	0.000000e+000
108774.234	-3.146687e+001	1.773960e+002	-4.424105e+001	-9.209071e+001	-2.000000e+002	0.000000e+000	-2.000000e+002	0.000000e+000
109706.066	-3.146594e+001	1.773935e+002	-4.422336e+001	-9.221816e+001	-2.000000e+002	0.000000e+000	-2.000000e+002	0.000000e+000
110637.899	-3.145860e+001	1.773968e+002	-4.423615e+001	-9.243855e+001	-2.000000e+002	0.000000e+000	-2.000000e+002	0.000000e+000
111569.731	-3.145149e+001	1.774105e+002	-4.422262e+001	-9.255424e+001	-2.000000e+002	0.000000e+000	-2.000000e+002	0.000000e+000
112501.563	-3.144999e+001	1.774246e+002	-4.421164e+001	-9.263144e+001	-2.000000e+002	0.000000e+000	-2.000000e+002	0.000000e+000
113433.396	-3.144496e+001	1.774317e+002	-4.421605e+001	-9.275263e+001	-2.000000e+002	0.000000e+000	-2.000000e+002	0.000000e+000
114365.228	-3.143701e+001	1.774396e+002	-4.419662e+001	-9.289762e+001	-2.000000e+002	0.000000e+000	-2.000000e+002	0.000000e+000
115297.061	-3.142840e+001	1.774303e+002	-4.416236e+001	-9.313295e+001	-2.000000e+002	0.000000e+000	-2.000000e+002	0.000000e+000
116228.893	-3.142541e+001	1.774370e+002	-4.414837e+001	-9.318579e+001	-2.000000e+002	0.000000e+000	-2.000000e+002	0.000000e+000
117160.725	-3.141995e+001	1.774349e+002	-4.413140e+001	-9.338618e+001	-2.000000e+002	0.000000e+000	-2.000000e+002	0.000000e+000
118092.558	-3.141490e+001	1.774367e+002	-4.412145e+001	-9.350847e+001	-2.000000e+002	0.000000e+000	-2.000000e+002	0.000000e+000
119024.390	-3.140923e+001	1.774577e+002	-4.409018e+001	-9.364336e+001	-2.000000e+002	0.000000e+000	-2.000000e+002	0.000000e+000
119956.223	-3.140302e+001	1.774403e+002	-4.409023e+001	-9.382893e+001	-2.000000e+002	0.000000e+000	-2.000000e+002	0.000000e+000
120888.055	-3.139707e+001	1.774402e+002	-4.407088e+001	-9.393961e+001	-2.000000e+002	0.000000e+000	-2.000000e+002	0.000000e+000
121819.887	-3.138741e+001	1.774296e+002	-4.403325e+001	-9.401128e+001	-2.000000e+002	0.000000e+000	-2.000000e+002	0.000000e+000
122751.720	-3.138531e+001	1.774592e+002	-4.401305e+001	-9.415300e+001	-2.000000e+002	0.000000e+000	-2.000000e+002	0.000000e+000
123683.552	-3.137741e+001	1.774477e+002	-4.399877e+001	-9.428886e+001	-2.000000e+002	0.000000e+000	-2.000000e+002	0.000000e+000
124615.385	-3.137081e+001	1.774579e+002	-4.396146e+001	-9.439215e+001	-2.000000e+002	0.000000e+000	-2.000000e+002	0.000000e+000
125547.217	-3.136632e+001	1.774246e+002	-4.393673e+001	-9.445127e+001	-2.000000e+002	0.000000e+000	-2.000000e+002	0.000000e+000
126479.049	-3.136148e+001	1.774354e+002	-4.391251e+001	-9.461769e+001	-2.000000e+002	0.000000e+000	-2.000000e+002	0.000000e+000
127410.882	-3.135546e+001	1.774164e+002	-4.390770e+001	-9.477361e+001	-2.000000e+002	0.000000e+000	-2.000000e+002	0.000000e+000
128342.714	-3.134878e+001	1.774104e+002	-4.385300e+001	-9.488504e+001	-2.000000e+002	0.000000e+000	-2.000000e+002	0.000000e+000
129274.547	-3.134047e+001	1.774154e+002	-4.383796e+001	-9.494217e+001	-2.000000e+002	0.000000e+000	-2.000000e+002	0.000000e+000
130206.379	-3.133305e+001	1.773975e+002	-4.381431e+001	-9.514461e+001	-2.000000e+002	0.000000e+000	-2.000000e+002	0.000000e+000
131138.211	-3.132501e+001	1.773822e+002	-4.376482e+001	-9.489633e+001	-2.000000e+002	0.000000e+000	-2.000000e+002	0.000000e+000
132070.044	-3.131977e+001	1.773799e+002	-4.375138e+001	-9.542383e+001	-2.000000e+002	0.000000e+000	-2.000000e+002	0.000000e+000
133001.876	-3.131335e+001	1.773527e+002	-4.370785e+001	-9.560753e+001	-2.000000e+002	0.000000e+000	-2.000000e+002	0.000000e+000
133933.709	-3.130772e+001	1.773323e+002	-4.368898e+001	-9.558167e+001	-2.000000e+002	0.000000e+000	-2.000000e+002	0.000000e+000
134865.541	-3.130074e+001	1.773537e+002	-4.366464e+001	-9.578855e+001	-2.000000e+002	0.000000e+000	-2.000000e+002	0.000000e+000
135797.373	-3.129345e+001	1.773186e+002	-4.362926e+001	-9.591240e+001	-2.000000e+002	0.000000e+000	-2.000000e+002	0.000000e+000
136729.206	-3.128903e+001	1.772951e+002	-4.359486e+001	-9.604396e+001	-2.000000e+002	0.000000e+000	-2.000000e+002	0.000000e+000
137661.038	-3.128446e+001	1.772862e+002	-4.355604e+001	-9.610054e+001	-2.000000e+002	0.000000e+000	-2.000000e+002	0.000000e+000
138592.871	-3.127457e+001	1.772680e+002	-4.351942e+001	-9.623340e+001	-2.000000e+002	0.000000e+000	-2.000000e+002	0.000000e+000
139524.703	-3.126653e+001	1.772489e+002	-4.348777e+001	-9.640282e+001	-2.000000e+002	0.000000e+000	-2.000000e+002	0.000000e+000
140456.535	-3.125788e+001	1.772523e+002	-4.344055e+001	-9.643114e+001	-2.000000e+002	0.000000e+000	-2.000000e+002	0.000000e+000
141388.368	-3.125179e+001	1.772072e+002	-4.341303e+001	-9.657430e+001	-2.000000e+002	0.000000e+000	-2.000000e+002	0.000000e+000
142320.200	-3.124728e+001	1.772033e+002	-4.339590e+001	-9.662619e+001	-2.000000e+002	0.000000e+000	-2.000000e+002	0.000000e+000
143252.033	-3.124117e+001	1.771818e+002	-4.335067e+001	-9.675298e+001	-2.000000e+002	0.000000e+000	-2.000000e+002	0.000000e+000
144183.865	-3.123179e+001	1.771671e+002	-4.330930e+001	-9.690912e+001	-2.000000e+002	0.000000e+000	-2.000000e+002	0.000000e+000
145115.697	-3.122798e+001	1.771313e+002	-4.327751e+001	-9.695583e+001	-2.000000e+002	0.000000e+000	-2.000000e+002	0.000000e+000
146047.530	-3.121822e+001	1.771009e+002	-4.325388e+001	-9.713759e+001	-2.000000e+002	0.000000e+000	-2.000000e+002	0.000000e+000
146979.362	-3.121245e+001	1.770993e+002	-4.322553e+001	-9.724110e+001	-2.000000e+002	0.000000e+000	-2.000000e+002	0.000000e+000
147911.194	-3.120616e+001	1.770672e+002	-4.318432e+001	-9.728983e+001	-2.000000e+002	0.000000e+000	-2.000000e+002	0.000000e+000
148843.027	-3.119723e+001	1.770542e+002	-4.313556e+001	-9.744366e+001	-2.000000e+002	0.000000e+000	-2.000000e+002	0.000000e+000
149774.859	-3.119126e+001	1.770224e+002	-4.309683e+001	-9.762350e+001	-2.000000e+002	0.000000e+000	-2.000000e+002	0.000000e+000
150706.692	-3.118576e+001	1.769996e+002	-4.307578e+001	-9.768518e+001	-2.000000e+002	0.000000e+000	-2.000000e+002	0.000000e+000
151638.524	-3.117709e+001	1.769628e+002	-4.302765e+001	-9.779445e+001	-2.000000e+002	0.000000e+000	-2.000000e+002	0.000000e+000
152570.356	-3.117185e+001	1.769323e+002	-4.299674e+001	-9.793941e+001	-2.000000e+002	0.000000e+000	-2.000000e+002	0.000000e+000
