!Agilent Technologies,E5061B,MY49203226,A.02.09
!Date: Wed Oct 07 10:24:42 2015
!Data & Calibration Information:
!Freq	S11:RESPS(ON)	S21:RESPT(ON)	S12:NONE(--)	S22:NONE(--)
# Hz S dB R 50
10000.000	-3.110299e+001	1.784986e+002	-7.181315e+001	-1.104719e+002	-2.000000e+002	0.000000e+000	-2.000000e+002	0.000000e+000
10931.832	-3.111142e+001	1.783238e+002	-6.070916e+001	-1.318508e+002	-2.000000e+002	0.000000e+000	-2.000000e+002	0.000000e+000
11863.665	-3.113031e+001	1.781741e+002	-6.620586e+001	-1.011358e+002	-2.000000e+002	0.000000e+000	-2.000000e+002	0.000000e+000
12795.497	-3.113323e+001	1.780148e+002	-6.546902e+001	1.393673e+002	-2.000000e+002	0.000000e+000	-2.000000e+002	0.000000e+000
13727.330	-3.114709e+001	1.778464e+002	-6.347463e+001	1.497796e+002	-2.000000e+002	0.000000e+000	-2.000000e+002	0.000000e+000
14659.162	-3.116291e+001	1.776922e+002	-5.479670e+001	1.360275e+002	-2.000000e+002	0.000000e+000	-2.000000e+002	0.000000e+000
15590.994	-3.117977e+001	1.775709e+002	-3.204890e+001	4.774158e+001	-2.000000e+002	0.000000e+000	-2.000000e+002	0.000000e+000
16522.827	-3.119310e+001	1.774211e+002	-5.675538e+001	-2.030203e+001	-2.000000e+002	0.000000e+000	-2.000000e+002	0.000000e+000
17454.659	-3.120333e+001	1.772435e+002	-6.456967e+001	-3.181678e+001	-2.000000e+002	0.000000e+000	-2.000000e+002	0.000000e+000
18386.492	-3.121889e+001	1.771105e+002	-6.812919e+001	9.385408e+000	-2.000000e+002	0.000000e+000	-2.000000e+002	0.000000e+000
19318.324	-3.123786e+001	1.769490e+002	-6.115893e+001	-3.202153e+001	-2.000000e+002	0.000000e+000	-2.000000e+002	0.000000e+000
20250.156	-3.125421e+001	1.768278e+002	-7.432891e+001	8.157827e+001	-2.000000e+002	0.000000e+000	-2.000000e+002	0.000000e+000
21181.989	-3.127128e+001	1.766711e+002	-1.015864e+002	-5.748314e+001	-2.000000e+002	0.000000e+000	-2.000000e+002	0.000000e+000
22113.821	-3.129073e+001	1.765430e+002	-6.870780e+001	-1.368467e+002	-2.000000e+002	0.000000e+000	-2.000000e+002	0.000000e+000
23045.654	-3.130671e+001	1.764420e+002	-9.921535e+001	-1.423374e+002	-2.000000e+002	0.000000e+000	-2.000000e+002	0.000000e+000
23977.486	-3.132574e+001	1.762998e+002	-1.101040e+002	-1.160799e+002	-2.000000e+002	0.000000e+000	-2.000000e+002	0.000000e+000
24909.318	-3.134134e+001	1.761790e+002	-1.000118e+002	-2.968774e+001	-2.000000e+002	0.000000e+000	-2.000000e+002	0.000000e+000
25841.151	-3.136189e+001	1.760715e+002	-9.687255e+001	6.422271e+001	-2.000000e+002	0.000000e+000	-2.000000e+002	0.000000e+000
26772.983	-3.138487e+001	1.759742e+002	-9.041605e+001	1.730708e+002	-2.000000e+002	0.000000e+000	-2.000000e+002	0.000000e+000
27704.816	-3.140242e+001	1.758778e+002	-8.603396e+001	-1.615679e+002	-2.000000e+002	0.000000e+000	-2.000000e+002	0.000000e+000
28636.648	-3.141849e+001	1.757523e+002	-7.913683e+001	-5.595518e+001	-2.000000e+002	0.000000e+000	-2.000000e+002	0.000000e+000
29568.480	-3.144099e+001	1.756669e+002	-7.152249e+001	-1.380525e+002	-2.000000e+002	0.000000e+000	-2.000000e+002	0.000000e+000
30500.313	-3.145965e+001	1.755693e+002	-6.486278e+001	-3.287131e+001	-2.000000e+002	0.000000e+000	-2.000000e+002	0.000000e+000
31432.145	-3.147824e+001	1.755195e+002	-6.650915e+001	-5.151313e+001	-2.000000e+002	0.000000e+000	-2.000000e+002	0.000000e+000
32363.977	-3.149651e+001	1.754193e+002	-6.261718e+001	6.959348e+000	-2.000000e+002	0.000000e+000	-2.000000e+002	0.000000e+000
33295.810	-3.151651e+001	1.753500e+002	-5.982395e+001	1.417414e+002	-2.000000e+002	0.000000e+000	-2.000000e+002	0.000000e+000
34227.642	-3.153729e+001	1.752767e+002	-5.972712e+001	1.125876e+002	-2.000000e+002	0.000000e+000	-2.000000e+002	0.000000e+000
35159.475	-3.155555e+001	1.752273e+002	-4.181567e+001	-3.617641e+001	-2.000000e+002	0.000000e+000	-2.000000e+002	0.000000e+000
36091.307	-3.157398e+001	1.751777e+002	-4.948944e+001	-1.064784e+002	-2.000000e+002	0.000000e+000	-2.000000e+002	0.000000e+000
37023.139	-3.159631e+001	1.751260e+002	-5.263490e+001	-8.387960e+001	-2.000000e+002	0.000000e+000	-2.000000e+002	0.000000e+000
37954.972	-3.161305e+001	1.750536e+002	-5.124176e+001	-6.108771e+001	-2.000000e+002	0.000000e+000	-2.000000e+002	0.000000e+000
38886.804	-3.163215e+001	1.750202e+002	-5.621729e+001	-6.412701e+001	-2.000000e+002	0.000000e+000	-2.000000e+002	0.000000e+000
39818.637	-3.165109e+001	1.749916e+002	-6.313546e+001	-6.955974e+001	-2.000000e+002	0.000000e+000	-2.000000e+002	0.000000e+000
40750.469	-3.166869e+001	1.749380e+002	-5.681325e+001	-7.429704e+001	-2.000000e+002	0.000000e+000	-2.000000e+002	0.000000e+000
41682.301	-3.168664e+001	1.749191e+002	-6.131411e+001	-8.820983e+001	-2.000000e+002	0.000000e+000	-2.000000e+002	0.000000e+000
42614.134	-3.170486e+001	1.748775e+002	-5.206441e+001	-1.262608e+002	-2.000000e+002	0.000000e+000	-2.000000e+002	0.000000e+000
43545.966	-3.172380e+001	1.748588e+002	-4.883926e+001	-8.074612e+001	-2.000000e+002	0.000000e+000	-2.000000e+002	0.000000e+000
44477.799	-3.173992e+001	1.748425e+002	-4.863120e+001	-9.711908e+001	-2.000000e+002	0.000000e+000	-2.000000e+002	0.000000e+000
45409.631	-3.175715e+001	1.748123e+002	-5.129684e+001	-8.734320e+001	-2.000000e+002	0.000000e+000	-2.000000e+002	0.000000e+000
46341.463	-3.177430e+001	1.747916e+002	-4.902952e+001	-9.094404e+001	-2.000000e+002	0.000000e+000	-2.000000e+002	0.000000e+000
47273.296	-3.178844e+001	1.747933e+002	-4.778930e+001	-7.424232e+001	-2.000000e+002	0.000000e+000	-2.000000e+002	0.000000e+000
48205.128	-3.180396e+001	1.748011e+002	-4.653980e+001	-7.630299e+001	-2.000000e+002	0.000000e+000	-2.000000e+002	0.000000e+000
49136.961	-3.182108e+001	1.747780e+002	-4.587677e+001	-7.618754e+001	-2.000000e+002	0.000000e+000	-2.000000e+002	0.000000e+000
50068.793	-3.183549e+001	1.747857e+002	-4.415989e+001	-7.973713e+001	-2.000000e+002	0.000000e+000	-2.000000e+002	0.000000e+000
51000.625	-3.185018e+001	1.747769e+002	-4.219511e+001	-7.987008e+001	-2.000000e+002	0.000000e+000	-2.000000e+002	0.000000e+000
51932.458	-3.186487e+001	1.747986e+002	-4.069815e+001	-8.161712e+001	-2.000000e+002	0.000000e+000	-2.000000e+002	0.000000e+000
52864.290	-3.187745e+001	1.748046e+002	-3.866243e+001	-8.283281e+001	-2.000000e+002	0.000000e+000	-2.000000e+002	0.000000e+000
53796.123	-3.189203e+001	1.748181e+002	-3.624431e+001	-8.198702e+001	-2.000000e+002	0.000000e+000	-2.000000e+002	0.000000e+000
54727.955	-3.190593e+001	1.748348e+002	-3.308415e+001	-8.417355e+001	-2.000000e+002	0.000000e+000	-2.000000e+002	0.000000e+000
55659.787	-3.191426e+001	1.748554e+002	-2.905796e+001	-8.604748e+001	-2.000000e+002	0.000000e+000	-2.000000e+002	0.000000e+000
56591.620	-3.192680e+001	1.748630e+002	-2.159686e+001	-9.214563e+001	-2.000000e+002	0.000000e+000	-2.000000e+002	0.000000e+000
57523.452	-3.193989e+001	1.748852e+002	-1.182828e+001	1.355152e+002	-2.000000e+002	0.000000e+000	-2.000000e+002	0.000000e+000
58455.285	-3.194706e+001	1.749025e+002	-2.464744e+001	1.051314e+002	-2.000000e+002	0.000000e+000	-2.000000e+002	0.000000e+000
59387.117	-3.195974e+001	1.749223e+002	-2.934971e+001	1.021207e+002	-2.000000e+002	0.000000e+000	-2.000000e+002	0.000000e+000
60318.949	-3.196853e+001	1.749466e+002	-3.229206e+001	9.985499e+001	-2.000000e+002	0.000000e+000	-2.000000e+002	0.000000e+000
61250.782	-3.197997e+001	1.749831e+002	-3.417005e+001	9.900904e+001	-2.000000e+002	0.000000e+000	-2.000000e+002	0.000000e+000
62182.614	-3.198829e+001	1.750078e+002	-3.568508e+001	9.895520e+001	-2.000000e+002	0.000000e+000	-2.000000e+002	0.000000e+000
63114.447	-3.199490e+001	1.750524e+002	-3.688975e+001	9.831462e+001	-2.000000e+002	0.000000e+000	-2.000000e+002	0.000000e+000
64046.279	-3.200643e+001	1.750640e+002	-3.786369e+001	9.775261e+001	-2.000000e+002	0.000000e+000	-2.000000e+002	0.000000e+000
64978.111	-3.201240e+001	1.750900e+002	-3.858541e+001	9.733278e+001	-2.000000e+002	0.000000e+000	-2.000000e+002	0.000000e+000
65909.944	-3.201587e+001	1.751335e+002	-3.934483e+001	9.687179e+001	-2.000000e+002	0.000000e+000	-2.000000e+002	0.000000e+000
66841.776	-3.202755e+001	1.751728e+002	-3.989722e+001	9.644814e+001	-2.000000e+002	0.000000e+000	-2.000000e+002	0.000000e+000
67773.609	-3.203447e+001	1.751753e+002	-4.039570e+001	9.618554e+001	-2.000000e+002	0.000000e+000	-2.000000e+002	0.000000e+000
68705.441	-3.203545e+001	1.752162e+002	-4.081584e+001	9.601510e+001	-2.000000e+002	0.000000e+000	-2.000000e+002	0.000000e+000
69637.273	-3.204285e+001	1.752650e+002	-4.118094e+001	9.556371e+001	-2.000000e+002	0.000000e+000	-2.000000e+002	0.000000e+000
70569.106	-3.204360e+001	1.752688e+002	-4.148442e+001	9.525827e+001	-2.000000e+002	0.000000e+000	-2.000000e+002	0.000000e+000
71500.938	-3.205237e+001	1.752947e+002	-4.179653e+001	9.505054e+001	-2.000000e+002	0.000000e+000	-2.000000e+002	0.000000e+000
72432.770	-3.205737e+001	1.753556e+002	-4.204247e+001	9.471332e+001	-2.000000e+002	0.000000e+000	-2.000000e+002	0.000000e+000
73364.603	-3.206272e+001	1.753938e+002	-4.225821e+001	9.439451e+001	-2.000000e+002	0.000000e+000	-2.000000e+002	0.000000e+000
74296.435	-3.206593e+001	1.753855e+002	-4.247267e+001	9.429545e+001	-2.000000e+002	0.000000e+000	-2.000000e+002	0.000000e+000
75228.268	-3.207082e+001	1.754451e+002	-4.265171e+001	9.400734e+001	-2.000000e+002	0.000000e+000	-2.000000e+002	0.000000e+000
76160.100	-3.206997e+001	1.754775e+002	-4.278759e+001	9.382431e+001	-2.000000e+002	0.000000e+000	-2.000000e+002	0.000000e+000
77091.932	-3.207244e+001	1.754992e+002	-4.296173e+001	9.343724e+001	-2.000000e+002	0.000000e+000	-2.000000e+002	0.000000e+000
78023.765	-3.207483e+001	1.755226e+002	-4.307667e+001	9.337262e+001	-2.000000e+002	0.000000e+000	-2.000000e+002	0.000000e+000
78955.597	-3.207586e+001	1.755616e+002	-4.318855e+001	9.312649e+001	-2.000000e+002	0.000000e+000	-2.000000e+002	0.000000e+000
79887.430	-3.207690e+001	1.756062e+002	-4.327315e+001	9.278792e+001	-2.000000e+002	0.000000e+000	-2.000000e+002	0.000000e+000
80819.262	-3.207567e+001	1.756352e+002	-4.336970e+001	9.262872e+001	-2.000000e+002	0.000000e+000	-2.000000e+002	0.000000e+000
81751.094	-3.208271e+001	1.756700e+002	-4.345919e+001	9.238970e+001	-2.000000e+002	0.000000e+000	-2.000000e+002	0.000000e+000
82682.927	-3.208086e+001	1.756991e+002	-4.352363e+001	9.227670e+001	-2.000000e+002	0.000000e+000	-2.000000e+002	0.000000e+000
83614.759	-3.207871e+001	1.757195e+002	-4.359277e+001	9.203981e+001	-2.000000e+002	0.000000e+000	-2.000000e+002	0.000000e+000
84546.592	-3.208298e+001	1.757681e+002	-4.364907e+001	9.178567e+001	-2.000000e+002	0.000000e+000	-2.000000e+002	0.000000e+000
85478.424	-3.208337e+001	1.757941e+002	-4.368432e+001	9.167736e+001	-2.000000e+002	0.000000e+000	-2.000000e+002	0.000000e+000
86410.256	-3.208188e+001	1.758183e+002	-4.372467e+001	9.154380e+001	-2.000000e+002	0.000000e+000	-2.000000e+002	0.000000e+000
87342.089	-3.208191e+001	1.758432e+002	-4.377166e+001	9.125357e+001	-2.000000e+002	0.000000e+000	-2.000000e+002	0.000000e+000
88273.921	-3.207899e+001	1.758563e+002	-4.379429e+001	9.111299e+001	-2.000000e+002	0.000000e+000	-2.000000e+002	0.000000e+000
89205.754	-3.207510e+001	1.758714e+002	-4.382767e+001	9.092538e+001	-2.000000e+002	0.000000e+000	-2.000000e+002	0.000000e+000
90137.586	-3.207801e+001	1.759230e+002	-4.383565e+001	9.072589e+001	-2.000000e+002	0.000000e+000	-2.000000e+002	0.000000e+000
91069.418	-3.206958e+001	1.759002e+002	-4.385514e+001	9.047870e+001	-2.000000e+002	0.000000e+000	-2.000000e+002	0.000000e+000
92001.251	-3.207255e+001	1.761877e+002	-4.385394e+001	9.023174e+001	-2.000000e+002	0.000000e+000	-2.000000e+002	0.000000e+000
92933.083	-3.207032e+001	1.762090e+002	-4.391340e+001	9.001271e+001	-2.000000e+002	0.000000e+000	-2.000000e+002	0.000000e+000
93864.916	-3.206960e+001	1.762332e+002	-4.388986e+001	8.988337e+001	-2.000000e+002	0.000000e+000	-2.000000e+002	0.000000e+000
94796.748	-3.206856e+001	1.762389e+002	-4.389187e+001	8.980687e+001	-2.000000e+002	0.000000e+000	-2.000000e+002	0.000000e+000
95728.580	-3.206030e+001	1.762630e+002	-4.389034e+001	8.964396e+001	-2.000000e+002	0.000000e+000	-2.000000e+002	0.000000e+000
96660.413	-3.205625e+001	1.762689e+002	-4.388045e+001	8.947951e+001	-2.000000e+002	0.000000e+000	-2.000000e+002	0.000000e+000
97592.245	-3.205610e+001	1.763008e+002	-4.388495e+001	8.938204e+001	-2.000000e+002	0.000000e+000	-2.000000e+002	0.000000e+000
98524.078	-3.204878e+001	1.763298e+002	-4.388685e+001	8.913810e+001	-2.000000e+002	0.000000e+000	-2.000000e+002	0.000000e+000
99455.910	-3.204750e+001	1.763120e+002	-4.385429e+001	8.903909e+001	-2.000000e+002	0.000000e+000	-2.000000e+002	0.000000e+000
100387.742	-3.203983e+001	1.763308e+002	-4.383713e+001	8.890390e+001	-2.000000e+002	0.000000e+000	-2.000000e+002	0.000000e+000
101319.575	-3.203838e+001	1.763569e+002	-4.382486e+001	8.871203e+001	-2.000000e+002	0.000000e+000	-2.000000e+002	0.000000e+000
102251.407	-3.203150e+001	1.763671e+002	-4.379329e+001	8.851787e+001	-2.000000e+002	0.000000e+000	-2.000000e+002	0.000000e+000
103183.240	-3.202714e+001	1.764020e+002	-4.380960e+001	8.829331e+001	-2.000000e+002	0.000000e+000	-2.000000e+002	0.000000e+000
104115.072	-3.202446e+001	1.763875e+002	-4.376277e+001	8.819068e+001	-2.000000e+002	0.000000e+000	-2.000000e+002	0.000000e+000
105046.904	-3.202031e+001	1.763958e+002	-4.373974e+001	8.803232e+001	-2.000000e+002	0.000000e+000	-2.000000e+002	0.000000e+000
105978.737	-3.201625e+001	1.764098e+002	-4.372077e+001	8.790460e+001	-2.000000e+002	0.000000e+000	-2.000000e+002	0.000000e+000
106910.569	-3.200897e+001	1.764299e+002	-4.370088e+001	8.770670e+001	-2.000000e+002	0.000000e+000	-2.000000e+002	0.000000e+000
107842.402	-3.200564e+001	1.764367e+002	-4.365025e+001	8.759344e+001	-2.000000e+002	0.000000e+000	-2.000000e+002	0.000000e+000
108774.234	-3.199840e+001	1.764389e+002	-4.363571e+001	8.750725e+001	-2.000000e+002	0.000000e+000	-2.000000e+002	0.000000e+000
109706.066	-3.199154e+001	1.764338e+002	-4.362026e+001	8.735832e+001	-2.000000e+002	0.000000e+000	-2.000000e+002	0.000000e+000
110637.899	-3.198581e+001	1.764318e+002	-4.358700e+001	8.709095e+001	-2.000000e+002	0.000000e+000	-2.000000e+002	0.000000e+000
111569.731	-3.198076e+001	1.764450e+002	-4.356331e+001	8.712598e+001	-2.000000e+002	0.000000e+000	-2.000000e+002	0.000000e+000
112501.563	-3.197580e+001	1.764320e+002	-4.351718e+001	8.696957e+001	-2.000000e+002	0.000000e+000	-2.000000e+002	0.000000e+000
113433.396	-3.197013e+001	1.764576e+002	-4.350590e+001	8.681489e+001	-2.000000e+002	0.000000e+000	-2.000000e+002	0.000000e+000
114365.228	-3.196473e+001	1.764609e+002	-4.346653e+001	8.672630e+001	-2.000000e+002	0.000000e+000	-2.000000e+002	0.000000e+000
115297.061	-3.195972e+001	1.764359e+002	-4.342671e+001	8.652034e+001	-2.000000e+002	0.000000e+000	-2.000000e+002	0.000000e+000
116228.893	-3.195185e+001	1.764438e+002	-4.339355e+001	8.644158e+001	-2.000000e+002	0.000000e+000	-2.000000e+002	0.000000e+000
117160.725	-3.194649e+001	1.764313e+002	-4.334773e+001	8.626208e+001	-2.000000e+002	0.000000e+000	-2.000000e+002	0.000000e+000
118092.558	-3.194125e+001	1.764405e+002	-4.333073e+001	8.610883e+001	-2.000000e+002	0.000000e+000	-2.000000e+002	0.000000e+000
119024.390	-3.193321e+001	1.764132e+002	-4.329379e+001	8.596621e+001	-2.000000e+002	0.000000e+000	-2.000000e+002	0.000000e+000
119956.223	-3.192639e+001	1.764237e+002	-4.326408e+001	8.579390e+001	-2.000000e+002	0.000000e+000	-2.000000e+002	0.000000e+000
120888.055	-3.191965e+001	1.764129e+002	-4.321117e+001	8.573276e+001	-2.000000e+002	0.000000e+000	-2.000000e+002	0.000000e+000
121819.887	-3.191297e+001	1.764189e+002	-4.317295e+001	8.569084e+001	-2.000000e+002	0.000000e+000	-2.000000e+002	0.000000e+000
122751.720	-3.190799e+001	1.763947e+002	-4.312724e+001	8.567813e+001	-2.000000e+002	0.000000e+000	-2.000000e+002	0.000000e+000
123683.552	-3.190121e+001	1.764001e+002	-4.310689e+001	8.532059e+001	-2.000000e+002	0.000000e+000	-2.000000e+002	0.000000e+000
124615.385	-3.189480e+001	1.763821e+002	-4.306705e+001	8.513959e+001	-2.000000e+002	0.000000e+000	-2.000000e+002	0.000000e+000
125547.217	-3.188677e+001	1.763702e+002	-4.301700e+001	8.509501e+001	-2.000000e+002	0.000000e+000	-2.000000e+002	0.000000e+000
126479.049	-3.187776e+001	1.763573e+002	-4.298220e+001	8.498571e+001	-2.000000e+002	0.000000e+000	-2.000000e+002	0.000000e+000
127410.882	-3.187655e+001	1.763608e+002	-4.294308e+001	8.478689e+001	-2.000000e+002	0.000000e+000	-2.000000e+002	0.000000e+000
128342.714	-3.186850e+001	1.763443e+002	-4.290043e+001	8.467786e+001	-2.000000e+002	0.000000e+000	-2.000000e+002	0.000000e+000
129274.547	-3.185796e+001	1.763206e+002	-4.285904e+001	8.462209e+001	-2.000000e+002	0.000000e+000	-2.000000e+002	0.000000e+000
130206.379	-3.185512e+001	1.762921e+002	-4.281994e+001	8.441518e+001	-2.000000e+002	0.000000e+000	-2.000000e+002	0.000000e+000
131138.211	-3.184516e+001	1.762874e+002	-4.279617e+001	8.449389e+001	-2.000000e+002	0.000000e+000	-2.000000e+002	0.000000e+000
132070.044	-3.183817e+001	1.762627e+002	-4.273041e+001	8.419437e+001	-2.000000e+002	0.000000e+000	-2.000000e+002	0.000000e+000
133001.876	-3.183367e+001	1.762476e+002	-4.270457e+001	8.409874e+001	-2.000000e+002	0.000000e+000	-2.000000e+002	0.000000e+000
133933.709	-3.182515e+001	1.762070e+002	-4.266300e+001	8.396620e+001	-2.000000e+002	0.000000e+000	-2.000000e+002	0.000000e+000
134865.541	-3.182009e+001	1.762193e+002	-4.261053e+001	8.385643e+001	-2.000000e+002	0.000000e+000	-2.000000e+002	0.000000e+000
135797.373	-3.181185e+001	1.761963e+002	-4.256729e+001	8.374933e+001	-2.000000e+002	0.000000e+000	-2.000000e+002	0.000000e+000
136729.206	-3.180291e+001	1.761563e+002	-4.252576e+001	8.359867e+001	-2.000000e+002	0.000000e+000	-2.000000e+002	0.000000e+000
137661.038	-3.179574e+001	1.761514e+002	-4.249513e+001	8.349274e+001	-2.000000e+002	0.000000e+000	-2.000000e+002	0.000000e+000
138592.871	-3.178341e+001	1.761416e+002	-4.243936e+001	8.334562e+001	-2.000000e+002	0.000000e+000	-2.000000e+002	0.000000e+000
139524.703	-3.177948e+001	1.760906e+002	-4.240584e+001	8.329078e+001	-2.000000e+002	0.000000e+000	-2.000000e+002	0.000000e+000
140456.535	-3.177571e+001	1.760698e+002	-4.236091e+001	8.317000e+001	-2.000000e+002	0.000000e+000	-2.000000e+002	0.000000e+000
141388.368	-3.176433e+001	1.760647e+002	-4.231608e+001	8.310533e+001	-2.000000e+002	0.000000e+000	-2.000000e+002	0.000000e+000
142320.200	-3.175738e+001	1.760398e+002	-4.226337e+001	8.287546e+001	-2.000000e+002	0.000000e+000	-2.000000e+002	0.000000e+000
143252.033	-3.175358e+001	1.759781e+002	-4.222416e+001	8.280245e+001	-2.000000e+002	0.000000e+000	-2.000000e+002	0.000000e+000
144183.865	-3.174564e+001	1.759782e+002	-4.217756e+001	8.280945e+001	-2.000000e+002	0.000000e+000	-2.000000e+002	0.000000e+000
145115.697	-3.173506e+001	1.759243e+002	-4.213222e+001	8.257660e+001	-2.000000e+002	0.000000e+000	-2.000000e+002	0.000000e+000
146047.530	-3.172798e+001	1.759037e+002	-4.210187e+001	8.248973e+001	-2.000000e+002	0.000000e+000	-2.000000e+002	0.000000e+000
146979.362	-3.172151e+001	1.758859e+002	-4.204725e+001	8.238896e+001	-2.000000e+002	0.000000e+000	-2.000000e+002	0.000000e+000
147911.194	-3.171446e+001	1.758525e+002	-4.201094e+001	8.228952e+001	-2.000000e+002	0.000000e+000	-2.000000e+002	0.000000e+000
148843.027	-3.170667e+001	1.758312e+002	-4.195591e+001	8.217220e+001	-2.000000e+002	0.000000e+000	-2.000000e+002	0.000000e+000
149774.859	-3.169914e+001	1.757672e+002	-4.191852e+001	8.203233e+001	-2.000000e+002	0.000000e+000	-2.000000e+002	0.000000e+000
150706.692	-3.169447e+001	1.757566e+002	-4.186751e+001	8.189750e+001	-2.000000e+002	0.000000e+000	-2.000000e+002	0.000000e+000
151638.524	-3.168594e+001	1.757231e+002	-4.181775e+001	8.179264e+001	-2.000000e+002	0.000000e+000	-2.000000e+002	0.000000e+000
152570.356	-3.167908e+001	1.756805e+002	-4.178968e+001	8.171827e+001	-2.000000e+002	0.000000e+000	-2.000000e+002	0.000000e+000
153502.189	-3.166974e+001	1.756405e+002	-4.174004e+001	8.158049e+001	-2.000000e+002	0.000000e+000	-2.000000e+002	0.000000e+000
