! ListType=Lin
!!TFReceiveChain3008 bei TX-Level -48dBm
# MHz S DB R 50
  0.0100000 -28.7672263 145.2662112
  0.0602010  -7.0358023 221.7797205
  0.1104020   4.5247788 177.1574862
  0.1606030   9.6459226 152.7005718
  0.2108040  12.8969784 138.3763111
  0.2610050  15.2781033 127.9942418
  0.3112060  17.0906180 120.3568916
  0.3614070  18.5783808 114.6430023
  0.4116080  19.8261984 109.9317758
  0.4618090  20.8687279 105.8946489
  0.5120101  21.8754926 102.6512569
  0.5622111  22.7097028  99.7517649
  0.6124121  23.4820173  97.2490014
  0.6626131  24.1697727  94.7388058
  0.7128141  24.8549518  92.6661846
  0.7630151  25.4753776  90.5313512
  0.8132161  26.0588029  88.6962704
  0.8634171  26.6339415  86.7060835
  0.9136181  27.1778378  85.3034328
  0.9638191  27.7013960  83.7444866
  1.0140201  28.1738652  81.9171033
  1.0642211  28.6170102  80.3522626
  1.1144221  29.0421294  79.0007274
  1.1646231  29.4698957  77.6057679
  1.2148241  29.9088129  76.4661338
  1.2650251  30.2861045  75.0904924
  1.3152261  30.6820684  73.4659615
  1.3654271  31.0612452  72.3324990
  1.4156281  31.4087679  71.1611315
  1.4658291  31.7476035  69.8132686
  1.5160302  32.1215991  68.6708136
  1.5662312  32.4903467  67.5229540
  1.6164322  32.7985474  65.9754238
  1.6666332  33.1410435  65.0075817
  1.7168342  33.4498758  63.7767147
  1.7670352  33.8472650  62.6058245
  1.8172362  34.1084344  61.4968943
  1.8674372  34.4451793  60.4869506
  1.9176382  34.7566722  59.5207568
  1.9678392  35.0403244  58.0236052
  2.0180402  35.3321684  56.8210662
  2.0682412  35.6509179  55.8449131
  2.1184422  35.9483266  54.7855713
  2.1686432  36.2635774  53.4180047
  2.2188442  36.5571459  52.4641587
  2.2690452  36.8813761  51.1649905
  2.3192462  37.1707540  49.9703883
  2.3694472  37.4968405  48.8533399
  2.4196482  37.7918827  47.5385006
  2.4698492  38.1078518  46.3673646
  2.5200503  38.3745308  45.3470915
  2.5702513  38.7166126  43.9397960
  2.6204523  39.0177825  42.8955429
  2.6706533  39.3318196  41.7891523
  2.7208543  39.6556756  40.2022049
  2.7710553  40.0167393  39.0890874
  2.8212563  40.3096106  38.0362958
  2.8714573  40.6454671  36.7007376
  2.9216583  40.9375240  35.5417046
  2.9718593  41.2497748  34.1632360
  3.0220603  41.6189125  33.0742248
  3.0722613  41.9744982  32.0785681
  3.1224623  42.3276915  31.3023956
  3.1726633  42.7104991  30.2050840
  3.2228643  43.1252665  28.7800580
  3.2730653  43.5251955  27.8083075
  3.3232663  43.9679874  26.4245141
  3.3734673  44.4434026  25.2762434
  3.4236683  44.9536493  24.0994316
  3.4738693  45.4281129  22.4780058
  3.5240704  45.9326458  21.1419997
  3.5742714  46.5645052  19.3284754
  3.6244724  47.1716915  17.4453898
  3.6746734  47.8210597  15.4996843
  3.7248744  48.4655321  13.3139158
  3.7750754  49.1876285  10.9559809
  3.8252764  49.9415934   8.1457399
  3.8754774  50.7692207   4.7584209
  3.9256784  51.5778678   1.0674459
  3.9758794  52.5577493  -3.6381541
  4.0260804  53.4573532  -9.3672317
  4.0762814  54.3550698 -16.5138028
  4.1264824  55.1669218 -25.0540644
  4.1766834  55.7636380 -35.1805824
  4.2268844  55.9732795 -45.9601385
  4.2770854  55.8670044 -55.7745553
  4.3272864  55.6008574 -63.5356306
  4.3774874  55.3307507 -69.8129934
  4.4276884  55.2593787 -74.7719316
  4.4778894  55.3730654 -80.1203446
  4.5280905  55.5819735 -87.1326252
  4.5782915  55.7373510 -95.5662591
  4.6284925  55.6243974 -104.8789998
  4.6786935  55.2356187 -114.1984724
  4.7288945  54.6254966 -122.6856840
  4.7790955  53.8895844 -130.1467186
  4.8292965  53.0331409 -136.4815046
  4.8794975  52.1913610 -141.2325435
  4.9296985  51.3829423 -145.7023557
  4.9798995  50.6026167 -149.2344968
  5.0301005  49.8845807 -152.2856532
  5.0803015  49.1626143 -155.1321860
  5.1305025  48.5378986 -157.2107001
  5.1807035  47.9054820 -159.2438489
  5.2309045  47.3266303 -161.0080270
  5.2811055  46.7787424 -162.7630014
  5.3313065  46.2742549 -164.4443753
  5.3815075  45.7827061 -166.0052036
  5.4317085  45.3205528 -167.2849786
  5.4819095  44.8562452 -168.6519863
  5.5321106  44.4065940 -169.9776002
  5.5823116  44.0545257 -171.0643734
  5.6325126  43.6428174 -172.5201142
  5.6827136  43.3014250 -173.2273062
  5.7329146  42.9232710 -174.5840544
  5.7831156  42.5704054 -175.4404055
  5.8333166  42.2448654 -176.4412659
  5.8835176  41.9524810 -177.4676953
  5.9337186  41.6315167 -178.4089401
  5.9839196  41.2992262 -179.2581037
  6.0341206  41.0319890 -180.2269797
  6.0843216  40.7465498 -181.1331827
  6.1345226  40.4673160 -181.9861408
  6.1847236  40.1902617 -182.8122237
  6.2349246  39.9433570 -183.8929568
  6.2851256  39.6977411 -184.7586135
  6.3353266  39.3988654 -185.4516268
  6.3855276  39.2040794 -186.4336429
  6.4357286  38.9843330 -187.0578993
  6.4859296  38.7436233 -188.2210847
  6.5361307  38.5268643 -188.6536469
  6.5863317  38.3014775 -189.5901986
  6.6365327  38.0844689 -190.3633802
  6.6867337  37.8721195 -191.1675436
  6.7369347  37.6928021 -192.1034655
  6.7871357  37.4580057 -192.7334672
  6.8373367  37.2558502 -193.5511786
  6.8875377  37.0783673 -194.2908428
  6.9377387  36.8632333 -194.9574344
  6.9879397  36.7320852 -195.8819376
  7.0381407  36.5110998 -196.7800195
  7.0883417  36.3194352 -197.3531760
  7.1385427  36.1512915 -197.8958576
  7.1887437  35.9871654 -198.6616864
  7.2389447  35.7910604 -199.5601691
  7.2891457  35.6191791 -200.2870444
  7.3393467  35.4680417 -201.1635595
  7.3895477  35.3066060 -201.7924211
  7.4397487  35.1386346 -202.7548364
  7.4899497  34.9802159 -203.4367150
  7.5401508  34.8198351 -204.2723638
  7.5903518  34.6680520 -204.9635737
  7.6405528  34.4800175 -205.6973567
  7.6907538  34.3438771 -206.6176100
  7.7409548  34.1729536 -207.1045346
  7.7911558  34.0255693 -207.9453056
  7.8413568  33.8766426 -208.6284131
  7.8915578  33.6936762 -209.1534738
  7.9417588  33.5608610 -209.8451757
  7.9919598  33.4170883 -210.5716406
  8.0421608  33.2739322 -211.3748948
  8.0923618  33.1359197 -212.0979071
  8.1425628  32.9730808 -212.8243560
  8.1927638  32.8014738 -213.2068194
  8.2429648  32.6963474 -214.0168505
  8.2931658  32.5149056 -214.6008311
  8.3433668  32.3931566 -215.7440544
  8.3935678  32.2542621 -216.0951653
  8.4437688  32.1169016 -216.7450037
  8.4939698  32.0040410 -217.5349859
  8.5441709  31.8770784 -217.8653757
  8.5943719  31.7355526 -218.5909214
  8.6445729  31.6119893 -219.4745389
  8.6947739  31.4908224 -219.9474921
  8.7449749  31.3467791 -220.5878899
  8.7951759  31.2162220 -221.2098261
  8.8453769  31.0953893 -221.7281598
  8.8955779  30.9636739 -222.5038542
  8.9457789  30.8598226 -223.0160982
  8.9959799  30.7439247 -223.7624107
  9.0461809  30.6205021 -224.4856249
  9.0963819  30.4833794 -225.0997944
  9.1465829  30.4076855 -225.7033815
  9.1967839  30.2849035 -226.4492047
  9.2469849  30.1389871 -226.9329237
  9.2971859  30.0369348 -227.7221542
  9.3473869  29.9309093 -228.2253538
  9.3975879  29.8343686 -228.8912344
  9.4477889  29.6824379 -229.5434072
  9.4979899  29.5849730 -230.2130737
  9.5481910  29.4984193 -230.9517005
  9.5983920  29.3820082 -231.4958157
  9.6485930  29.2942273 -232.1267103
  9.6987940  29.1609800 -232.5973166
  9.7489950  29.0699596 -233.3325632
  9.7991960  28.9785784 -234.2125033
  9.8493970  28.8341635 -234.7271734
  9.8995980  28.7548642 -235.2398137
  9.9497990  28.6859947 -235.8991656
 10.0000000  28.5129062 -236.6185536
