! ListType=Lin
! Comment=ImpMatchMagPhase
# kHz S MA R 50
 24.0000000   1.1244275 -172.9011909
 24.0157480   1.1247366 -173.0504610
 24.0314961   1.1243825 -173.2093135
 24.0472441   1.1244921 -173.3583555
 24.0629921   1.1245028 -173.5130674
 24.0787402   1.1245141 -173.6639459
 24.0944882   1.1245995 -173.8159219
 24.1102362   1.1244428 -173.9722537
 24.1259843   1.1246768 -174.1231011
 24.1417323   1.1243978 -174.2780637
 24.1574803   1.1245778 -174.4362927
 24.1732283   1.1244148 -174.5979729
 24.1889764   1.1246616 -174.7474302
 24.2047244   1.1245267 -174.9082527
 24.2204724   1.1244801 -175.0575753
 24.2362205   1.1244574 -175.2218900
 24.2519685   1.1245956 -175.3740199
 24.2677165   1.1244764 -175.5434166
 24.2834646   1.1244256 -175.7017187
 24.2992126   1.1245274 -175.8610547
 24.3149606   1.1244028 -176.0199931
 24.3307087   1.1243444 -176.1797508
 24.3464567   1.1244426 -176.3340061
 24.3622047   1.1241794 -176.5053368
 24.3779528   1.1243411 -176.6609282
 24.3937008   1.1239066 -176.8374571
 24.4094488   1.1240087 -176.9972349
 24.4251969   1.1239058 -177.1689503
 24.4409449   1.1238392 -177.3331370
 24.4566929   1.1237437 -177.5054333
 24.4724409   1.1235905 -177.6731530
 24.4881890   1.1234006 -177.8503092
 24.5039370   1.1231494 -178.0187372
 24.5196850   1.1233175 -178.1964034
 24.5354331   1.1230703 -178.3756830
 24.5511811   1.1229605 -178.5493399
 24.5669291   1.1229773 -178.7299090
 24.5826772   1.1225627 -178.9185151
 24.5984252   1.1226347 -179.0988769
 24.6141732   1.1222000 -179.2919009
 24.6299213   1.1219802 -179.4834944
 24.6456693   1.1218518 -179.6782820
 24.6614173   1.1215975 -179.8706265
 24.6771654   1.1209983 -180.0686949
 24.6929134   1.1208829 -180.2738151
 24.7086614   1.1204474 -180.4785851
 24.7244094   1.1201912 -180.6925143
 24.7401575   1.1197490 -180.9027160
 24.7559055   1.1192841 -181.1254247
 24.7716535   1.1188671 -181.3507853
 24.7874016   1.1184271 -181.5783310
 24.8031496   1.1177814 -181.8137326
 24.8188976   1.1169956 -182.0596571
 24.8346457   1.1163614 -182.3097768
 24.8503937   1.1154975 -182.5676754
 24.8661417   1.1145221 -182.8316560
 24.8818898   1.1137243 -183.1108921
 24.8976378   1.1125522 -183.4010179
 24.9133858   1.1113921 -183.6978320
 24.9291339   1.1099907 -184.0056790
 24.9448819   1.1084400 -184.3329163
 24.9606299   1.1066704 -184.6707021
 24.9763780   1.1044858 -185.0369417
 24.9921260   1.1023214 -185.4050818
 25.0078740   1.0994918 -185.8113985
 25.0236220   1.0965403 -186.2355831
 25.0393701   1.0928506 -186.6906143
 25.0551181   1.0886239 -187.1777379
 25.0708661   1.0835386 -187.6899643
 25.0866142   1.0777467 -188.2539681
 25.1023622   1.0705744 -188.8525202
 25.1181102   1.0620467 -189.5028837
 25.1338583   1.0517449 -190.1978401
 25.1496063   1.0388050 -190.9542309
 25.1653543   1.0229510 -191.7438104
 25.1811024   1.0034717 -192.5637738
 25.1968504   0.9788471 -193.3667564
 25.2125984   0.9486641 -194.0873089
 25.2283465   0.9111120 -194.5898723
 25.2440945   0.8663988 -194.6212101
 25.2598425   0.8165933 -193.8164279
 25.2755906   0.7660812 -191.6687869
 25.2913386   0.7256703 -187.8153185
 25.3070866   0.7075905 -182.5664035
 25.3228346   0.7191119 -177.0934529
 25.3385827   0.7561408 -172.8617920
 25.3543307   0.8065240 -170.3577037
 25.3700787   0.8579254 -169.3442792
 25.3858268   0.9035902 -169.2826250
 25.4015748   0.9421028 -169.7434984
 25.4173228   0.9734235 -170.4618392
 25.4330709   0.9981006 -171.2538019
 25.4488189   1.0183327 -172.0599847
 25.4645669   1.0343637 -172.8435059
 25.4803150   1.0473704 -173.5775523
 25.4960630   1.0579409 -174.2486146
 25.5118110   1.0667702 -174.8996673
 25.5275591   1.0738868 -175.4852807
 25.5433071   1.0799972 -176.0380434
 25.5590551   1.0853396 -176.5417533
 25.5748031   1.0896461 -177.0210672
 25.5905512   1.0934730 -177.4660392
 25.6062992   1.0967130 -177.8862109
 25.6220472   1.0994870 -178.2652882
 25.6377953   1.1020036 -178.6327543
 25.6535433   1.1041280 -178.9861130
 25.6692913   1.1061374 -179.3144353
 25.6850394   1.1079407 -179.6343161
 25.7007874   1.1093839 -179.9389527
 25.7165354   1.1107431 -180.2210188
 25.7322835   1.1119203 -180.5016161
 25.7480315   1.1132158 -180.7635835
 25.7637795   1.1141182 -181.0232502
 25.7795276   1.1150101 -181.2700832
 25.7952756   1.1158213 -181.5114583
 25.8110236   1.1165413 -181.7438036
 25.8267717   1.1173602 -181.9691401
 25.8425197   1.1181303 -182.1896414
 25.8582677   1.1185914 -182.4045448
 25.8740157   1.1191961 -182.6146703
 25.8897638   1.1195605 -182.8196949
 25.9055118   1.1200544 -183.0215395
 25.9212598   1.1206586 -183.2121104
 25.9370079   1.1208549 -183.4092851
 25.9527559   1.1212906 -183.5973288
 25.9685039   1.1216998 -183.7767961
 25.9842520   1.1221329 -183.9550655
 26.0000000   1.1223960 -184.1368114
